T93A0 000:009.869   SEGGER J-Link V6.70e Log File
T93A0 000:010.098   DLL Compiled: Apr 17 2020 17:55:05
T93A0 000:010.111   Logging started @ 2023-11-15 21:45
T93A0 000:010.128 JLINK_SetWarnOutHandler(...)
T93A0 000:010.143 - 0.021ms
T93A0 000:010.162 JLINK_OpenEx(...)
T93A0 000:012.961   Firmware: J-Link ARM V8 compiled Nov 28 2014 13:44:46
T93A0 000:016.275   Hardware: V8.00
T93A0 000:016.316   S/N: 17935099
T93A0 000:016.332   OEM: SEGGER
T93A0 000:016.344   Feature(s): RDI,FlashDL,FlashBP,JFlash
T93A0 000:017.885   TELNET listener socket opened on port 19021
T93A0 000:018.109   WEBSRV Starting webserver
T93A0 000:018.316   WEBSRV Webserver running on local port 19080
T93A0 000:018.332 - 8.175ms returns "O.K."
T93A0 000:018.357 JLINK_GetEmuCaps()
T93A0 000:018.376 - 0.027ms returns 0xB9FF7BBF
T93A0 000:018.399 JLINK_TIF_GetAvailable(...)
T93A0 000:018.606 - 0.226ms
T93A0 000:018.646 JLINK_SetErrorOutHandler(...)
T93A0 000:018.660 - 0.021ms
T93A0 000:018.699 JLINK_ExecCommand("ProjectFile = "D:\Documents\ARM\UPPERBOARDNEW\MDK-ARM\JLinkSettings.ini"", ...). 
T93A0 000:030.813 - 12.147ms returns 0x00
T93A0 000:055.519 JLINK_ExecCommand("Device = STM32F103RB", ...). 
T93A0 000:065.353   Device "STM32F103RB" selected.
T93A0 000:065.719 - 10.099ms returns 0x00
T93A0 000:065.744 JLINK_ExecCommand("DisableConnectionTimeout", ...). 
T93A0 000:065.763 - 0.008ms returns 0x01
T93A0 000:065.778 JLINK_GetHardwareVersion()
T93A0 000:065.787 - 0.013ms returns 0x13880
T93A0 000:065.801 JLINK_GetDLLVersion()  returns 67005
T93A0 000:065.823 JLINK_GetFirmwareString(...)
T93A0 000:065.832 - 0.020ms
T93A0 000:083.854 JLINK_GetDLLVersion()  returns 67005
T93A0 000:083.884 JLINK_GetCompileDateTime()
T93A0 000:083.893 - 0.013ms
T93A0 000:090.464 JLINK_GetFirmwareString(...)
T93A0 000:090.491 - 0.032ms
T93A0 000:098.429 JLINK_GetHardwareVersion()
T93A0 000:098.456 - 0.032ms returns 0x13880
T93A0 000:125.381 JLINK_TIF_Select(JLINKARM_TIF_SWD)
T93A0 000:126.451 - 1.084ms returns 0x00
T93A0 000:126.497 JLINK_SetSpeed(10000)
T93A0 000:126.627 - 0.140ms
T93A0 000:126.648 JLINK_GetId()
T93A0 000:134.100   Found SW-DP with ID 0x1BA01477
T93A0 000:155.923   Found SW-DP with ID 0x1BA01477
T93A0 000:160.042   Old FW that does not support reading DPIDR via DAP jobs
T93A0 000:171.315   Unknown DP version. Assuming DPv0
T93A0 000:177.759   Scanning AP map to find all available APs
T93A0 000:188.144   AP[1]: Stopped AP scan as end of AP map has been reached
T93A0 000:194.664   AP[0]: AHB-AP (IDR: 0x14770011)
T93A0 000:200.968   Iterating through AP map to find AHB-AP to use
T93A0 000:213.484   AP[0]: Core found
T93A0 000:220.637   AP[0]: AHB-AP ROM base: 0xE00FF000
T93A0 000:230.310   CPUID register: 0x411FC231. Implementer code: 0x41 (ARM)
T93A0 000:237.873   Found Cortex-M3 r1p1, Little endian.
T93A0 000:338.745    -- Max. mem block: 0x000023F8
T93A0 000:338.788   CPU_ReadMem(4 bytes @ 0xE000EDF0)
T93A0 000:339.491   CPU_WriteMem(4 bytes @ 0xE000EDF0)
T93A0 000:339.968   CPU_ReadMem(4 bytes @ 0xE0002000)
T93A0 000:348.432   FPUnit: 6 code (BP) slots and 2 literal slots
T93A0 000:348.457   CPU_ReadMem(4 bytes @ 0xE000EDFC)
T93A0 000:348.929   CPU_WriteMem(4 bytes @ 0xE000EDFC)
T93A0 000:349.409   CPU_ReadMem(4 bytes @ 0xE0001000)
T93A0 000:349.887   CPU_WriteMem(4 bytes @ 0xE0001000)
T93A0 000:350.368   CPU_ReadMem(4 bytes @ 0xE000ED88)
T93A0 000:350.853   CPU_WriteMem(4 bytes @ 0xE000ED88)
T93A0 000:351.334   CPU_ReadMem(4 bytes @ 0xE000ED88)
T93A0 000:351.840   CPU_WriteMem(4 bytes @ 0xE000ED88)
T93A0 000:359.027   CoreSight components:
T93A0 000:365.623   ROMTbl[0] @ E00FF000
T93A0 000:365.658   CPU_ReadMem(64 bytes @ 0xE00FF000)
T93A0 000:366.621   CPU_ReadMem(32 bytes @ 0xE000EFE0)
T93A0 000:373.855   ROMTbl[0][0]: E000E000, CID: B105E00D, PID: 001BB000 SCS
T93A0 000:373.891   CPU_ReadMem(32 bytes @ 0xE0001FE0)
T93A0 000:381.581   ROMTbl[0][1]: E0001000, CID: B105E00D, PID: 001BB002 DWT
T93A0 000:381.611   CPU_ReadMem(32 bytes @ 0xE0002FE0)
T93A0 000:392.039   ROMTbl[0][2]: E0002000, CID: B105E00D, PID: 000BB003 FPB
T93A0 000:392.133   CPU_ReadMem(32 bytes @ 0xE0000FE0)
T93A0 000:399.351   ROMTbl[0][3]: E0000000, CID: B105E00D, PID: 001BB001 ITM
T93A0 000:399.378   CPU_ReadMem(32 bytes @ 0xE0040FE0)
T93A0 000:409.642   ROMTbl[0][4]: E0040000, CID: B105900D, PID: 001BB923 TPIU-Lite
T93A0 000:410.295 - 283.660ms   returns 0x1BA01477
T93A0 000:410.327 JLINK_GetDLLVersion()  returns 67005
T93A0 000:410.339 JLINK_CORE_GetFound()
T93A0 000:410.348 - 0.013ms returns 0x30000FF
T93A0 000:410.361 JLINK_GetDebugInfo(0x100 = JLINKARM_ROM_TABLE_ADDR_INDEX)
T93A0 000:410.376   Value=0xE00FF000
T93A0 000:410.389 - 0.032ms returns 0x00
T93A0 000:416.952 JLINK_GetDebugInfo(0x100 = JLINKARM_ROM_TABLE_ADDR_INDEX)
T93A0 000:416.969   Value=0xE00FF000
T93A0 000:416.982 - 0.034ms returns 0x00
T93A0 000:416.994 JLINK_GetDebugInfo(0x101 = JLINKARM_DEBUG_INFO_ETM_ADDR_INDEX)
T93A0 000:417.003   Value=0x00000000
T93A0 000:417.015 - 0.025ms returns 0x00
T93A0 000:417.034   JLINK_ReadMemEx(0xE0041FF0, 0x0010 Bytes, ..., Flags = 0x02000004)
T93A0 000:417.067   CPU_ReadMem(16 bytes @ 0xE0041FF0)
T93A0 000:417.572   Data:  00 00 00 00 00 00 00 00 00 00 00 00 00 00 00 00
T93A0 000:417.592 - 0.566ms returns 0x10
T93A0 000:417.607 JLINK_GetDebugInfo(0x102 = JLINKARM_DEBUG_INFO_MTB_ADDR_INDEX)
T93A0 000:417.617   Value=0x00000000
T93A0 000:417.629 - 0.026ms returns 0x00
T93A0 000:417.640 JLINK_GetDebugInfo(0x103 = JLINKARM_DEBUG_INFO_TPIU_ADDR_INDEX)
T93A0 000:417.649   Value=0xE0040000
T93A0 000:417.661 - 0.025ms returns 0x00
T93A0 000:417.673 JLINK_GetDebugInfo(0x104 = JLINKARM_DEBUG_INFO_ITM_ADDR_INDEX)
T93A0 000:417.681   Value=0xE0000000
T93A0 000:417.693 - 0.025ms returns 0x00
T93A0 000:417.705 JLINK_GetDebugInfo(0x105 = JLINKARM_DEBUG_INFO_DWT_ADDR_INDEX)
T93A0 000:417.713   Value=0xE0001000
T93A0 000:417.725 - 0.024ms returns 0x00
T93A0 000:417.736 JLINK_GetDebugInfo(0x106 = JLINKARM_DEBUG_INFO_FPB_ADDR_INDEX)
T93A0 000:417.745   Value=0xE0002000
T93A0 000:417.757 - 0.024ms returns 0x00
T93A0 000:417.768 JLINK_GetDebugInfo(0x107 = JLINKARM_DEBUG_INFO_NVIC_ADDR_INDEX)
T93A0 000:417.777   Value=0xE000E000
T93A0 000:417.789 - 0.024ms returns 0x00
T93A0 000:417.800 JLINK_GetDebugInfo(0x10C = JLINKARM_DEBUG_INFO_DBG_ADDR_INDEX)
T93A0 000:417.809   Value=0xE000EDF0
T93A0 000:417.821 - 0.025ms returns 0x00
T93A0 000:417.832 JLINK_GetDebugInfo(0x01 = Unknown)
T93A0 000:417.843   Value=0x00000000
T93A0 000:417.855 - 0.027ms returns 0x00
T93A0 000:417.869 JLINK_ReadMemU32(0xE000ED00, 0x0001 Items, ...)
T93A0 000:417.884   CPU_ReadMem(4 bytes @ 0xE000ED00)
T93A0 000:418.321   Data:  31 C2 1F 41
T93A0 000:418.346    - CPUID
T93A0 000:418.359 - 0.493ms returns 1
T93A0 000:418.374 JLINK_GetDebugInfo(0x10F = JLINKARM_DEBUG_INFO_HAS_CORTEX_M_SECURITY_EXT_INDEX)
T93A0 000:418.384   Value=0x00000000
T93A0 000:418.396 - 0.026ms returns 0x00
T93A0 000:418.411 JLINK_SetResetType(JLINKARM_CM3_RESET_TYPE_NORMAL)
T93A0 000:418.420 - 0.013ms returns JLINKARM_CM3_RESET_TYPE_NORMAL
T93A0 000:418.432 JLINK_Reset()
T93A0 000:418.457   CPU is running
T93A0 000:418.472   CPU_WriteMem(4 bytes @ 0xE000EDF0)
T93A0 000:418.932   CPU is running
T93A0 000:418.956   CPU_WriteMem(4 bytes @ 0xE000EDFC)
T93A0 000:427.454   Reset: Halt core after reset via DEMCR.VC_CORERESET.
T93A0 000:434.852   Reset: Reset device via AIRCR.SYSRESETREQ.
T93A0 000:434.878   CPU is running
T93A0 000:434.895   CPU_WriteMem(4 bytes @ 0xE000ED0C)
T93A0 000:488.465   CPU_ReadMem(4 bytes @ 0xE000EDF0)
T93A0 000:488.938   CPU_ReadMem(4 bytes @ 0xE000EDF0)
T93A0 000:489.462   CPU is running
T93A0 000:489.484   CPU_WriteMem(4 bytes @ 0xE000EDF0)
T93A0 000:489.948   CPU is running
T93A0 000:489.967   CPU_WriteMem(4 bytes @ 0xE000EDFC)
T93A0 000:495.740   CPU_ReadMem(4 bytes @ 0xE000EDF0)
T93A0 000:498.669   CPU_WriteMem(4 bytes @ 0xE0002000)
T93A0 000:499.163   CPU_ReadMem(4 bytes @ 0xE000EDFC)
T93A0 000:499.617   CPU_ReadMem(4 bytes @ 0xE0001000)
T93A0 000:500.100 - 81.680ms
T93A0 000:500.129 JLINK_Halt()
T93A0 000:500.139 - 0.017ms returns 0x00
T93A0 000:500.156 JLINK_ReadMemU32(0xE000EDF0, 0x0001 Items, ...)
T93A0 000:500.173   CPU_ReadMem(4 bytes @ 0xE000EDF0)
T93A0 000:500.669   Data:  03 00 03 00
T93A0 000:500.693    - DHCSR
T93A0 000:500.706 - 0.555ms returns 1
T93A0 000:500.725 JLINK_WriteU32(0xE000EDF0, 0xA05F0003)
T93A0 000:500.735    - DHCSR
T93A0 000:500.762   CPU_WriteMem(4 bytes @ 0xE000EDF0)
T93A0 000:501.241 - 0.526ms returns 0
T93A0 000:501.265 JLINK_WriteU32(0xE000EDFC, 0x01000000)
T93A0 000:501.275    - DEMCR
T93A0 000:501.294   CPU_WriteMem(4 bytes @ 0xE000EDFC)
T93A0 000:501.842 - 0.587ms returns 0
T93A0 000:531.172 JLINK_GetHWStatus(...)
T93A0 000:531.500 - 0.339ms returns 0x00
T93A0 000:551.086 JLINK_GetNumBPUnits(Type = 0xFFFFFF00)
T93A0 000:551.116 - 0.035ms returns 0x06
T93A0 000:551.129 JLINK_GetNumBPUnits(Type = 0xF0)
T93A0 000:551.138 - 0.013ms returns 0x2000
T93A0 000:551.149 JLINK_GetNumWPUnits()
T93A0 000:551.157 - 0.012ms returns 0x04
T93A0 000:570.047 JLINK_GetSpeed()
T93A0 000:570.077 - 0.035ms returns 0xFA0
T93A0 000:583.813 JLINK_ReadMemU32(0xE000E004, 0x0001 Items, ...)
T93A0 000:583.855   CPU_ReadMem(4 bytes @ 0xE000E004)
T93A0 000:584.320   Data:  01 00 00 00
T93A0 000:584.341 - 0.532ms returns 1
T93A0 000:584.357 JLINK_ReadMemU32(0xE000E004, 0x0001 Items, ...)
T93A0 000:584.372   CPU_ReadMem(4 bytes @ 0xE000E004)
T93A0 000:584.840   Data:  01 00 00 00
T93A0 000:584.860 - 0.508ms returns 1
T93A0 000:584.876 JLINK_WriteMemEx(0xE0001000, 0x001C Bytes, ..., Flags = 0x02000004)
T93A0 000:584.886   Data:  01 00 00 00 00 00 00 00 00 00 00 00 00 00 00 00 ...
T93A0 000:585.254   CPU_WriteMem(28 bytes @ 0xE0001000)
T93A0 000:585.899 - 1.037ms returns 0x1C
T93A0 000:585.944 JLINK_Halt()
T93A0 000:585.955 - 0.015ms returns 0x00
T93A0 000:585.968 JLINK_IsHalted()
T93A0 000:585.980 - 0.016ms returns TRUE
T93A0 000:591.463 JLINK_WriteMem(0x20000000, 0x0164 Bytes, ...)
T93A0 000:591.486   Data:  00 BE 0A E0 0D 78 2D 06 68 40 08 24 40 00 00 D3 ...
T93A0 000:591.826   CPU_WriteMem(356 bytes @ 0x20000000)
T93A0 000:594.472 - 3.020ms returns 0x164
T93A0 000:594.528 JLINK_WriteReg(R0, 0x08000000)
T93A0 000:594.542 - 0.019ms returns 0x00
T93A0 000:594.554 JLINK_WriteReg(R1, 0x007A1200)
T93A0 000:594.564 - 0.013ms returns 0x00
T93A0 000:594.575 JLINK_WriteReg(R2, 0x00000001)
T93A0 000:594.584 - 0.013ms returns 0x00
T93A0 000:594.595 JLINK_WriteReg(R3, 0x00000000)
T93A0 000:594.604 - 0.013ms returns 0x00
T93A0 000:594.615 JLINK_WriteReg(R4, 0x00000000)
T93A0 000:594.624 - 0.013ms returns 0x00
T93A0 000:594.635 JLINK_WriteReg(R5, 0x00000000)
T93A0 000:594.644 - 0.013ms returns 0x00
T93A0 000:594.655 JLINK_WriteReg(R6, 0x00000000)
T93A0 000:594.664 - 0.013ms returns 0x00
T93A0 000:594.675 JLINK_WriteReg(R7, 0x00000000)
T93A0 000:594.684 - 0.013ms returns 0x00
T93A0 000:594.695 JLINK_WriteReg(R8, 0x00000000)
T93A0 000:594.704 - 0.013ms returns 0x00
T93A0 000:594.716 JLINK_WriteReg(R9, 0x20000160)
T93A0 000:594.724 - 0.013ms returns 0x00
T93A0 000:594.736 JLINK_WriteReg(R10, 0x00000000)
T93A0 000:594.745 - 0.013ms returns 0x00
T93A0 000:594.756 JLINK_WriteReg(R11, 0x00000000)
T93A0 000:594.766 - 0.014ms returns 0x00
T93A0 000:594.778 JLINK_WriteReg(R12, 0x00000000)
T93A0 000:594.787 - 0.013ms returns 0x00
T93A0 000:594.799 JLINK_WriteReg(R13 (SP), 0x20001000)
T93A0 000:594.809 - 0.014ms returns 0x00
T93A0 000:594.820 JLINK_WriteReg(R14, 0x20000001)
T93A0 000:594.830 - 0.014ms returns 0x00
T93A0 000:594.841 JLINK_WriteReg(R15 (PC), 0x20000038)
T93A0 000:594.851 - 0.013ms returns 0x00
T93A0 000:594.862 JLINK_WriteReg(XPSR, 0x01000000)
T93A0 000:594.871 - 0.013ms returns 0x00
T93A0 000:594.883 JLINK_WriteReg(MSP, 0x20001000)
T93A0 000:594.892 - 0.013ms returns 0x00
T93A0 000:594.904 JLINK_WriteReg(PSP, 0x20001000)
T93A0 000:594.913 - 0.013ms returns 0x00
T93A0 000:594.925 JLINK_WriteReg(CFBP, 0x00000000)
T93A0 000:594.934 - 0.013ms returns 0x00
T93A0 000:594.946   JLINK_SetBPEx(Addr = 0x20000000, Type = 0xFFFFFFF2)
T93A0 000:594.964   CPU_ReadMem(2 bytes @ 0x20000000)
T93A0 000:595.439 - 0.505ms returns 0x00000001
T93A0 000:595.462 JLINK_Go()
T93A0 000:595.476   CPU_WriteMem(2 bytes @ 0x20000000)
T93A0 000:595.969   CPU_ReadMem(4 bytes @ 0xE0001000)
T93A0 000:596.465   CPU_WriteMem(4 bytes @ 0xE0002008)
T93A0 000:596.487   CPU_WriteMem(4 bytes @ 0xE000200C)
T93A0 000:596.501   CPU_WriteMem(4 bytes @ 0xE0002010)
T93A0 000:596.514   CPU_WriteMem(4 bytes @ 0xE0002014)
T93A0 000:596.527   CPU_WriteMem(4 bytes @ 0xE0002018)
T93A0 000:596.541   CPU_WriteMem(4 bytes @ 0xE000201C)
T93A0 000:598.495   CPU_WriteMem(4 bytes @ 0xE0001004)
T93A0 000:601.286 - 5.835ms
T93A0 000:601.308 JLINK_IsHalted()
T93A0 000:603.703   CPU_ReadMem(2 bytes @ 0x20000000)
T93A0 000:604.212 - 2.916ms returns TRUE
T93A0 000:604.236 JLINK_ReadReg(R15 (PC))
T93A0 000:604.249 - 0.018ms returns 0x20000000
T93A0 000:604.261 JLINK_ClrBPEx(BPHandle = 0x00000001)
T93A0 000:604.272 - 0.014ms returns 0x00
T93A0 000:604.284 JLINK_ReadReg(R0)
T93A0 000:604.293 - 0.014ms returns 0x00000000
T93A0 000:605.096 JLINK_WriteReg(R0, 0x08000000)
T93A0 000:605.114 - 0.023ms returns 0x00
T93A0 000:605.126 JLINK_WriteReg(R1, 0x007A1200)
T93A0 000:605.136 - 0.013ms returns 0x00
T93A0 000:605.147 JLINK_WriteReg(R2, 0x00000001)
T93A0 000:605.156 - 0.013ms returns 0x00
T93A0 000:605.167 JLINK_WriteReg(R3, 0x00000000)
T93A0 000:605.176 - 0.013ms returns 0x00
T93A0 000:605.188 JLINK_WriteReg(R4, 0x00000000)
T93A0 000:605.196 - 0.013ms returns 0x00
T93A0 000:605.208 JLINK_WriteReg(R5, 0x00000000)
T93A0 000:605.217 - 0.013ms returns 0x00
T93A0 000:605.228 JLINK_WriteReg(R6, 0x00000000)
T93A0 000:605.237 - 0.013ms returns 0x00
T93A0 000:605.248 JLINK_WriteReg(R7, 0x00000000)
T93A0 000:605.257 - 0.013ms returns 0x00
T93A0 000:605.268 JLINK_WriteReg(R8, 0x00000000)
T93A0 000:605.277 - 0.013ms returns 0x00
T93A0 000:605.288 JLINK_WriteReg(R9, 0x20000160)
T93A0 000:605.297 - 0.013ms returns 0x00
T93A0 000:605.308 JLINK_WriteReg(R10, 0x00000000)
T93A0 000:605.317 - 0.013ms returns 0x00
T93A0 000:605.329 JLINK_WriteReg(R11, 0x00000000)
T93A0 000:605.338 - 0.013ms returns 0x00
T93A0 000:605.349 JLINK_WriteReg(R12, 0x00000000)
T93A0 000:605.358 - 0.013ms returns 0x00
T93A0 000:605.369 JLINK_WriteReg(R13 (SP), 0x20001000)
T93A0 000:605.379 - 0.014ms returns 0x00
T93A0 000:605.390 JLINK_WriteReg(R14, 0x20000001)
T93A0 000:605.399 - 0.013ms returns 0x00
T93A0 000:605.411 JLINK_WriteReg(R15 (PC), 0x2000007C)
T93A0 000:605.420 - 0.013ms returns 0x00
T93A0 000:605.431 JLINK_WriteReg(XPSR, 0x01000000)
T93A0 000:605.440 - 0.013ms returns 0x00
T93A0 000:605.456 JLINK_WriteReg(MSP, 0x20001000)
T93A0 000:605.465 - 0.013ms returns 0x00
T93A0 000:605.479 JLINK_WriteReg(PSP, 0x20001000)
T93A0 000:605.488 - 0.013ms returns 0x00
T93A0 000:605.502 JLINK_WriteReg(CFBP, 0x00000000)
T93A0 000:605.511 - 0.013ms returns 0x00
T93A0 000:605.526   JLINK_SetBPEx(Addr = 0x20000000, Type = 0xFFFFFFF2)
T93A0 000:605.540 - 0.018ms returns 0x00000002
T93A0 000:605.554 JLINK_Go()
T93A0 000:605.571   CPU_ReadMem(4 bytes @ 0xE0001000)
T93A0 000:608.410 - 2.867ms
T93A0 000:608.437 JLINK_IsHalted()
T93A0 000:608.861 - 0.435ms returns FALSE
T93A0 000:629.376 JLINK_IsHalted()
T93A0 000:629.845 - 0.481ms returns FALSE
T93A0 000:631.365 JLINK_IsHalted()
T93A0 000:633.848   CPU_ReadMem(2 bytes @ 0x20000000)
T93A0 000:634.337 - 2.983ms returns TRUE
T93A0 000:634.432 JLINK_ReadReg(R15 (PC))
T93A0 000:634.453 - 0.026ms returns 0x20000000
T93A0 000:634.467 JLINK_ClrBPEx(BPHandle = 0x00000002)
T93A0 000:634.477 - 0.014ms returns 0x00
T93A0 000:634.490 JLINK_ReadReg(R0)
T93A0 000:634.499 - 0.014ms returns 0x00000000
T93A0 000:687.925 JLINK_WriteReg(R0, 0x00000001)
T93A0 000:687.972 - 0.060ms returns 0x00
T93A0 000:687.998 JLINK_WriteReg(R1, 0x007A1200)
T93A0 000:688.021 - 0.033ms returns 0x00
T93A0 000:688.044 JLINK_WriteReg(R2, 0x00000001)
T93A0 000:688.061 - 0.025ms returns 0x00
T93A0 000:688.080 JLINK_WriteReg(R3, 0x00000000)
T93A0 000:688.095 - 0.022ms returns 0x00
T93A0 000:688.113 JLINK_WriteReg(R4, 0x00000000)
T93A0 000:688.202 - 0.097ms returns 0x00
T93A0 000:688.222 JLINK_WriteReg(R5, 0x00000000)
T93A0 000:688.237 - 0.022ms returns 0x00
T93A0 000:688.254 JLINK_WriteReg(R6, 0x00000000)
T93A0 000:688.269 - 0.022ms returns 0x00
T93A0 000:688.287 JLINK_WriteReg(R7, 0x00000000)
T93A0 000:688.302 - 0.022ms returns 0x00
T93A0 000:688.320 JLINK_WriteReg(R8, 0x00000000)
T93A0 000:688.335 - 0.022ms returns 0x00
T93A0 000:688.353 JLINK_WriteReg(R9, 0x20000160)
T93A0 000:688.368 - 0.022ms returns 0x00
T93A0 000:688.385 JLINK_WriteReg(R10, 0x00000000)
T93A0 000:688.401 - 0.022ms returns 0x00
T93A0 000:688.419 JLINK_WriteReg(R11, 0x00000000)
T93A0 000:688.434 - 0.022ms returns 0x00
T93A0 000:688.452 JLINK_WriteReg(R12, 0x00000000)
T93A0 000:688.466 - 0.021ms returns 0x00
T93A0 000:688.484 JLINK_WriteReg(R13 (SP), 0x20001000)
T93A0 000:688.500 - 0.022ms returns 0x00
T93A0 000:688.518 JLINK_WriteReg(R14, 0x20000001)
T93A0 000:688.533 - 0.022ms returns 0x00
T93A0 000:688.552 JLINK_WriteReg(R15 (PC), 0x2000006A)
T93A0 000:688.568 - 0.022ms returns 0x00
T93A0 000:688.587 JLINK_WriteReg(XPSR, 0x01000000)
T93A0 000:688.603 - 0.024ms returns 0x00
T93A0 000:688.621 JLINK_WriteReg(MSP, 0x20001000)
T93A0 000:688.638 - 0.024ms returns 0x00
T93A0 000:688.658 JLINK_WriteReg(PSP, 0x20001000)
T93A0 000:688.675 - 0.024ms returns 0x00
T93A0 000:688.693 JLINK_WriteReg(CFBP, 0x00000000)
T93A0 000:688.708 - 0.022ms returns 0x00
T93A0 000:688.728   JLINK_SetBPEx(Addr = 0x20000000, Type = 0xFFFFFFF2)
T93A0 000:688.751 - 0.032ms returns 0x00000003
T93A0 000:688.769 JLINK_Go()
T93A0 000:688.800   CPU_ReadMem(4 bytes @ 0xE0001000)
T93A0 000:691.348 - 2.609ms
T93A0 000:691.408 JLINK_IsHalted()
T93A0 000:693.817   CPU_ReadMem(2 bytes @ 0x20000000)
T93A0 000:694.286 - 2.890ms returns TRUE
T93A0 000:694.309 JLINK_ReadReg(R15 (PC))
T93A0 000:694.322 - 0.017ms returns 0x20000000
T93A0 000:694.334 JLINK_ClrBPEx(BPHandle = 0x00000003)
T93A0 000:694.344 - 0.014ms returns 0x00
T93A0 000:694.356 JLINK_ReadReg(R0)
T93A0 000:694.366 - 0.014ms returns 0x00000000
T93A0 000:705.454 JLINK_WriteMem(0x20000000, 0x0164 Bytes, ...)
T93A0 000:705.473   Data:  00 BE 0A E0 0D 78 2D 06 68 40 08 24 40 00 00 D3 ...
T93A0 000:705.499   CPU_WriteMem(356 bytes @ 0x20000000)
T93A0 000:708.146 - 2.704ms returns 0x164
T93A0 000:708.200 JLINK_WriteReg(R0, 0x08000000)
T93A0 000:708.215 - 0.020ms returns 0x00
T93A0 000:708.227 JLINK_WriteReg(R1, 0x007A1200)
T93A0 000:708.237 - 0.014ms returns 0x00
T93A0 000:708.249 JLINK_WriteReg(R2, 0x00000002)
T93A0 000:708.259 - 0.014ms returns 0x00
T93A0 000:708.270 JLINK_WriteReg(R3, 0x00000000)
T93A0 000:708.280 - 0.013ms returns 0x00
T93A0 000:708.291 JLINK_WriteReg(R4, 0x00000000)
T93A0 000:708.301 - 0.013ms returns 0x00
T93A0 000:708.312 JLINK_WriteReg(R5, 0x00000000)
T93A0 000:708.322 - 0.013ms returns 0x00
T93A0 000:708.333 JLINK_WriteReg(R6, 0x00000000)
T93A0 000:708.343 - 0.013ms returns 0x00
T93A0 000:708.354 JLINK_WriteReg(R7, 0x00000000)
T93A0 000:708.364 - 0.013ms returns 0x00
T93A0 000:708.375 JLINK_WriteReg(R8, 0x00000000)
T93A0 000:708.385 - 0.013ms returns 0x00
T93A0 000:708.396 JLINK_WriteReg(R9, 0x20000160)
T93A0 000:708.405 - 0.013ms returns 0x00
T93A0 000:708.417 JLINK_WriteReg(R10, 0x00000000)
T93A0 000:708.426 - 0.013ms returns 0x00
T93A0 000:708.438 JLINK_WriteReg(R11, 0x00000000)
T93A0 000:708.447 - 0.013ms returns 0x00
T93A0 000:708.459 JLINK_WriteReg(R12, 0x00000000)
T93A0 000:708.468 - 0.013ms returns 0x00
T93A0 000:708.480 JLINK_WriteReg(R13 (SP), 0x20001000)
T93A0 000:708.490 - 0.014ms returns 0x00
T93A0 000:708.502 JLINK_WriteReg(R14, 0x20000001)
T93A0 000:708.511 - 0.014ms returns 0x00
T93A0 000:708.523 JLINK_WriteReg(R15 (PC), 0x20000038)
T93A0 000:708.532 - 0.014ms returns 0x00
T93A0 000:708.544 JLINK_WriteReg(XPSR, 0x01000000)
T93A0 000:708.553 - 0.013ms returns 0x00
T93A0 000:708.565 JLINK_WriteReg(MSP, 0x20001000)
T93A0 000:708.574 - 0.013ms returns 0x00
T93A0 000:708.586 JLINK_WriteReg(PSP, 0x20001000)
T93A0 000:708.598 - 0.018ms returns 0x00
T93A0 000:708.612 JLINK_WriteReg(CFBP, 0x00000000)
T93A0 000:708.621 - 0.013ms returns 0x00
T93A0 000:708.634   JLINK_SetBPEx(Addr = 0x20000000, Type = 0xFFFFFFF2)
T93A0 000:708.651   CPU_ReadMem(2 bytes @ 0x20000000)
T93A0 000:709.132 - 0.510ms returns 0x00000004
T93A0 000:709.155 JLINK_Go()
T93A0 000:709.169   CPU_WriteMem(2 bytes @ 0x20000000)
T93A0 000:709.647   CPU_ReadMem(4 bytes @ 0xE0001000)
T93A0 000:712.410 - 3.266ms
T93A0 000:712.436 JLINK_IsHalted()
T93A0 000:714.848   CPU_ReadMem(2 bytes @ 0x20000000)
T93A0 000:715.337 - 2.912ms returns TRUE
T93A0 000:715.363 JLINK_ReadReg(R15 (PC))
T93A0 000:715.377 - 0.018ms returns 0x20000000
T93A0 000:715.389 JLINK_ClrBPEx(BPHandle = 0x00000004)
T93A0 000:715.399 - 0.014ms returns 0x00
T93A0 000:715.414 JLINK_ReadReg(R0)
T93A0 000:715.423 - 0.014ms returns 0x00000000
T93A0 000:715.937 JLINK_WriteMem(0x20000164, 0x029C Bytes, ...)
T93A0 000:715.953   Data:  10 1B 00 20 B1 01 00 08 DD 48 00 08 61 45 00 08 ...
T93A0 000:715.974   CPU_WriteMem(668 bytes @ 0x20000164)
T93A0 000:720.414 - 4.489ms returns 0x29C
T93A0 000:720.438 JLINK_WriteMem(0x20000400, 0x0164 Bytes, ...)
T93A0 000:720.449   Data:  A8 69 E6 18 C0 1A A8 61 28 6A 18 44 28 62 28 46 ...
T93A0 000:720.471   CPU_WriteMem(356 bytes @ 0x20000400)
T93A0 000:723.107 - 2.685ms returns 0x164
T93A0 000:723.144 JLINK_WriteReg(R0, 0x08000000)
T93A0 000:723.159 - 0.020ms returns 0x00
T93A0 000:723.171 JLINK_WriteReg(R1, 0x00000400)
T93A0 000:723.181 - 0.014ms returns 0x00
T93A0 000:723.193 JLINK_WriteReg(R2, 0x20000164)
T93A0 000:723.202 - 0.014ms returns 0x00
T93A0 000:723.214 JLINK_WriteReg(R3, 0x00000000)
T93A0 000:723.223 - 0.013ms returns 0x00
T93A0 000:723.235 JLINK_WriteReg(R4, 0x00000000)
T93A0 000:723.244 - 0.013ms returns 0x00
T93A0 000:723.256 JLINK_WriteReg(R5, 0x00000000)
T93A0 000:723.265 - 0.013ms returns 0x00
T93A0 000:723.277 JLINK_WriteReg(R6, 0x00000000)
T93A0 000:723.286 - 0.013ms returns 0x00
T93A0 000:723.297 JLINK_WriteReg(R7, 0x00000000)
T93A0 000:723.307 - 0.013ms returns 0x00
T93A0 000:723.318 JLINK_WriteReg(R8, 0x00000000)
T93A0 000:723.328 - 0.013ms returns 0x00
T93A0 000:723.339 JLINK_WriteReg(R9, 0x20000160)
T93A0 000:723.349 - 0.013ms returns 0x00
T93A0 000:723.360 JLINK_WriteReg(R10, 0x00000000)
T93A0 000:723.369 - 0.013ms returns 0x00
T93A0 000:723.381 JLINK_WriteReg(R11, 0x00000000)
T93A0 000:723.390 - 0.013ms returns 0x00
T93A0 000:723.402 JLINK_WriteReg(R12, 0x00000000)
T93A0 000:723.411 - 0.013ms returns 0x00
T93A0 000:723.422 JLINK_WriteReg(R13 (SP), 0x20001000)
T93A0 000:723.434 - 0.016ms returns 0x00
T93A0 000:723.446 JLINK_WriteReg(R14, 0x20000001)
T93A0 000:723.455 - 0.013ms returns 0x00
T93A0 000:723.467 JLINK_WriteReg(R15 (PC), 0x200000F4)
T93A0 000:723.478 - 0.015ms returns 0x00
T93A0 000:723.489 JLINK_WriteReg(XPSR, 0x01000000)
T93A0 000:723.499 - 0.014ms returns 0x00
T93A0 000:723.510 JLINK_WriteReg(MSP, 0x20001000)
T93A0 000:723.519 - 0.013ms returns 0x00
T93A0 000:723.531 JLINK_WriteReg(PSP, 0x20001000)
T93A0 000:723.540 - 0.013ms returns 0x00
T93A0 000:723.552 JLINK_WriteReg(CFBP, 0x00000000)
T93A0 000:723.561 - 0.013ms returns 0x00
T93A0 000:723.574   JLINK_SetBPEx(Addr = 0x20000000, Type = 0xFFFFFFF2)
T93A0 000:723.588 - 0.019ms returns 0x00000005
T93A0 000:723.600 JLINK_Go()
T93A0 000:723.618   CPU_ReadMem(4 bytes @ 0xE0001000)
T93A0 000:726.410 - 2.821ms
T93A0 000:726.433 JLINK_IsHalted()
T93A0 000:726.859 - 0.437ms returns FALSE
T93A0 000:733.104 JLINK_IsHalted()
T93A0 000:733.561 - 0.468ms returns FALSE
T93A0 000:735.092 JLINK_IsHalted()
T93A0 000:735.558 - 0.478ms returns FALSE
T93A0 000:737.088 JLINK_IsHalted()
T93A0 000:737.561 - 0.484ms returns FALSE
T93A0 000:739.084 JLINK_IsHalted()
T93A0 000:739.560 - 0.487ms returns FALSE
T93A0 000:741.085 JLINK_IsHalted()
T93A0 000:741.561 - 0.487ms returns FALSE
T93A0 000:743.070 JLINK_IsHalted()
T93A0 000:743.561 - 0.502ms returns FALSE
T93A0 000:745.064 JLINK_IsHalted()
T93A0 000:745.562 - 0.508ms returns FALSE
T93A0 000:747.079 JLINK_IsHalted()
T93A0 000:747.561 - 0.493ms returns FALSE
T93A0 000:749.055 JLINK_IsHalted()
T93A0 000:749.561 - 0.516ms returns FALSE
T93A0 000:751.048 JLINK_IsHalted()
T93A0 000:751.486 - 0.449ms returns FALSE
T93A0 000:753.057 JLINK_IsHalted()
T93A0 000:753.562 - 0.516ms returns FALSE
T93A0 000:755.037 JLINK_IsHalted()
T93A0 000:755.461 - 0.434ms returns FALSE
T93A0 000:757.034 JLINK_IsHalted()
T93A0 000:759.450   CPU_ReadMem(2 bytes @ 0x20000000)
T93A0 000:759.963 - 2.940ms returns TRUE
T93A0 000:759.985 JLINK_ReadReg(R15 (PC))
T93A0 000:759.999 - 0.018ms returns 0x20000000
T93A0 000:760.011 JLINK_ClrBPEx(BPHandle = 0x00000005)
T93A0 000:760.021 - 0.014ms returns 0x00
T93A0 000:760.033 JLINK_ReadReg(R0)
T93A0 000:760.043 - 0.014ms returns 0x00000000
T93A0 000:761.111 JLINK_WriteMem(0x20000164, 0x029C Bytes, ...)
T93A0 000:761.127   Data:  01 2F 0A D0 2E 2E 08 D1 20 46 E1 68 88 47 7F 1C ...
T93A0 000:761.148   CPU_WriteMem(668 bytes @ 0x20000164)
T93A0 000:765.561 - 4.461ms returns 0x29C
T93A0 000:765.584 JLINK_WriteMem(0x20000400, 0x0164 Bytes, ...)
T93A0 000:765.595   Data:  00 02 00 B5 13 46 94 46 96 46 20 39 22 BF A0 E8 ...
T93A0 000:765.615   CPU_WriteMem(356 bytes @ 0x20000400)
T93A0 000:768.238 - 2.665ms returns 0x164
T93A0 000:768.268 JLINK_WriteReg(R0, 0x08000400)
T93A0 000:768.282 - 0.018ms returns 0x00
T93A0 000:768.294 JLINK_WriteReg(R1, 0x00000400)
T93A0 000:768.305 - 0.014ms returns 0x00
T93A0 000:768.319 JLINK_WriteReg(R2, 0x20000164)
T93A0 000:768.329 - 0.014ms returns 0x00
T93A0 000:768.343 JLINK_WriteReg(R3, 0x00000000)
T93A0 000:768.352 - 0.014ms returns 0x00
T93A0 000:768.366 JLINK_WriteReg(R4, 0x00000000)
T93A0 000:768.375 - 0.013ms returns 0x00
T93A0 000:768.389 JLINK_WriteReg(R5, 0x00000000)
T93A0 000:768.399 - 0.014ms returns 0x00
T93A0 000:768.413 JLINK_WriteReg(R6, 0x00000000)
T93A0 000:768.422 - 0.014ms returns 0x00
T93A0 000:768.436 JLINK_WriteReg(R7, 0x00000000)
T93A0 000:768.446 - 0.013ms returns 0x00
T93A0 000:768.460 JLINK_WriteReg(R8, 0x00000000)
T93A0 000:768.469 - 0.014ms returns 0x00
T93A0 000:768.483 JLINK_WriteReg(R9, 0x20000160)
T93A0 000:768.492 - 0.014ms returns 0x00
T93A0 000:768.506 JLINK_WriteReg(R10, 0x00000000)
T93A0 000:768.516 - 0.014ms returns 0x00
T93A0 000:768.529 JLINK_WriteReg(R11, 0x00000000)
T93A0 000:768.539 - 0.014ms returns 0x00
T93A0 000:768.550 JLINK_WriteReg(R12, 0x00000000)
T93A0 000:768.559 - 0.013ms returns 0x00
T93A0 000:768.571 JLINK_WriteReg(R13 (SP), 0x20001000)
T93A0 000:768.581 - 0.014ms returns 0x00
T93A0 000:768.595 JLINK_WriteReg(R14, 0x20000001)
T93A0 000:768.604 - 0.013ms returns 0x00
T93A0 000:768.618 JLINK_WriteReg(R15 (PC), 0x200000F4)
T93A0 000:768.628 - 0.014ms returns 0x00
T93A0 000:768.641 JLINK_WriteReg(XPSR, 0x01000000)
T93A0 000:768.650 - 0.013ms returns 0x00
T93A0 000:768.664 JLINK_WriteReg(MSP, 0x20001000)
T93A0 000:768.673 - 0.013ms returns 0x00
T93A0 000:768.687 JLINK_WriteReg(PSP, 0x20001000)
T93A0 000:768.696 - 0.013ms returns 0x00
T93A0 000:768.710 JLINK_WriteReg(CFBP, 0x00000000)
T93A0 000:768.720 - 0.014ms returns 0x00
T93A0 000:768.734   JLINK_SetBPEx(Addr = 0x20000000, Type = 0xFFFFFFF2)
T93A0 000:768.748 - 0.019ms returns 0x00000006
T93A0 000:768.762 JLINK_Go()
T93A0 000:768.781   CPU_ReadMem(4 bytes @ 0xE0001000)
T93A0 000:771.563 - 2.812ms
T93A0 000:771.589 JLINK_IsHalted()
T93A0 000:772.053 - 0.475ms returns FALSE
T93A0 000:773.987 JLINK_IsHalted()
T93A0 000:774.409 - 0.433ms returns FALSE
T93A0 000:775.983 JLINK_IsHalted()
T93A0 000:776.416 - 0.444ms returns FALSE
T93A0 000:777.976 JLINK_IsHalted()
T93A0 000:778.415 - 0.450ms returns FALSE
T93A0 000:779.991 JLINK_IsHalted()
T93A0 000:780.429 - 0.449ms returns FALSE
T93A0 000:781.966 JLINK_IsHalted()
T93A0 000:782.384 - 0.429ms returns FALSE
T93A0 000:783.962 JLINK_IsHalted()
T93A0 000:784.384 - 0.432ms returns FALSE
T93A0 000:785.969 JLINK_IsHalted()
T93A0 000:786.401 - 0.442ms returns FALSE
T93A0 000:787.950 JLINK_IsHalted()
T93A0 000:788.384 - 0.445ms returns FALSE
T93A0 000:789.944 JLINK_IsHalted()
T93A0 000:790.384 - 0.451ms returns FALSE
T93A0 000:791.939 JLINK_IsHalted()
T93A0 000:792.374 - 0.445ms returns FALSE
T93A0 000:793.939 JLINK_IsHalted()
T93A0 000:794.373 - 0.445ms returns FALSE
T93A0 000:795.931 JLINK_IsHalted()
T93A0 000:796.359 - 0.438ms returns FALSE
T93A0 000:797.932 JLINK_IsHalted()
T93A0 000:798.416 - 0.494ms returns FALSE
T93A0 000:799.919 JLINK_IsHalted()
T93A0 000:800.360 - 0.451ms returns FALSE
T93A0 000:801.930 JLINK_IsHalted()
T93A0 000:804.414   CPU_ReadMem(2 bytes @ 0x20000000)
T93A0 000:804.888 - 2.969ms returns TRUE
T93A0 000:804.910 JLINK_ReadReg(R15 (PC))
T93A0 000:804.923 - 0.017ms returns 0x20000000
T93A0 000:804.936 JLINK_ClrBPEx(BPHandle = 0x00000006)
T93A0 000:804.946 - 0.014ms returns 0x00
T93A0 000:804.958 JLINK_ReadReg(R0)
T93A0 000:804.967 - 0.014ms returns 0x00000000
T93A0 000:805.926 JLINK_WriteMem(0x20000164, 0x029C Bytes, ...)
T93A0 000:805.942   Data:  F0 87 01 20 FB E7 00 00 01 69 4A 1C 02 61 08 78 ...
T93A0 000:805.962   CPU_WriteMem(668 bytes @ 0x20000164)
T93A0 000:810.387 - 4.472ms returns 0x29C
T93A0 000:810.409 JLINK_WriteMem(0x20000400, 0x0164 Bytes, ...)
T93A0 000:810.420   Data:  00 F0 A8 B9 40 F6 8C 10 C2 F2 00 00 00 F0 A2 B9 ...
T93A0 000:810.440   CPU_WriteMem(356 bytes @ 0x20000400)
T93A0 000:813.074 - 2.676ms returns 0x164
T93A0 000:813.101 JLINK_WriteReg(R0, 0x08000800)
T93A0 000:813.114 - 0.018ms returns 0x00
T93A0 000:813.126 JLINK_WriteReg(R1, 0x00000400)
T93A0 000:813.136 - 0.014ms returns 0x00
T93A0 000:813.148 JLINK_WriteReg(R2, 0x20000164)
T93A0 000:813.157 - 0.014ms returns 0x00
T93A0 000:813.169 JLINK_WriteReg(R3, 0x00000000)
T93A0 000:813.178 - 0.013ms returns 0x00
T93A0 000:813.190 JLINK_WriteReg(R4, 0x00000000)
T93A0 000:813.199 - 0.013ms returns 0x00
T93A0 000:813.211 JLINK_WriteReg(R5, 0x00000000)
T93A0 000:813.220 - 0.013ms returns 0x00
T93A0 000:813.231 JLINK_WriteReg(R6, 0x00000000)
T93A0 000:813.241 - 0.013ms returns 0x00
T93A0 000:813.252 JLINK_WriteReg(R7, 0x00000000)
T93A0 000:813.262 - 0.013ms returns 0x00
T93A0 000:813.273 JLINK_WriteReg(R8, 0x00000000)
T93A0 000:813.283 - 0.013ms returns 0x00
T93A0 000:813.294 JLINK_WriteReg(R9, 0x20000160)
T93A0 000:813.303 - 0.013ms returns 0x00
T93A0 000:813.315 JLINK_WriteReg(R10, 0x00000000)
T93A0 000:813.324 - 0.013ms returns 0x00
T93A0 000:813.336 JLINK_WriteReg(R11, 0x00000000)
T93A0 000:813.345 - 0.013ms returns 0x00
T93A0 000:813.356 JLINK_WriteReg(R12, 0x00000000)
T93A0 000:813.366 - 0.013ms returns 0x00
T93A0 000:813.377 JLINK_WriteReg(R13 (SP), 0x20001000)
T93A0 000:813.387 - 0.014ms returns 0x00
T93A0 000:813.399 JLINK_WriteReg(R14, 0x20000001)
T93A0 000:813.408 - 0.013ms returns 0x00
T93A0 000:813.420 JLINK_WriteReg(R15 (PC), 0x200000F4)
T93A0 000:813.429 - 0.014ms returns 0x00
T93A0 000:813.441 JLINK_WriteReg(XPSR, 0x01000000)
T93A0 000:813.450 - 0.013ms returns 0x00
T93A0 000:813.461 JLINK_WriteReg(MSP, 0x20001000)
T93A0 000:813.470 - 0.013ms returns 0x00
T93A0 000:813.482 JLINK_WriteReg(PSP, 0x20001000)
T93A0 000:813.491 - 0.013ms returns 0x00
T93A0 000:813.503 JLINK_WriteReg(CFBP, 0x00000000)
T93A0 000:813.512 - 0.013ms returns 0x00
T93A0 000:813.525   JLINK_SetBPEx(Addr = 0x20000000, Type = 0xFFFFFFF2)
T93A0 000:813.538 - 0.019ms returns 0x00000007
T93A0 000:813.550 JLINK_Go()
T93A0 000:813.566   CPU_ReadMem(4 bytes @ 0xE0001000)
T93A0 000:816.410 - 2.871ms
T93A0 000:816.432 JLINK_IsHalted()
T93A0 000:816.859 - 0.437ms returns FALSE
T93A0 000:818.869 JLINK_IsHalted()
T93A0 000:819.352 - 0.493ms returns FALSE
T93A0 000:820.863 JLINK_IsHalted()
T93A0 000:821.286 - 0.434ms returns FALSE
T93A0 000:822.856 JLINK_IsHalted()
T93A0 000:823.296 - 0.450ms returns FALSE
T93A0 000:824.851 JLINK_IsHalted()
T93A0 000:825.286 - 0.446ms returns FALSE
T93A0 000:826.850 JLINK_IsHalted()
T93A0 000:827.297 - 0.458ms returns FALSE
T93A0 000:831.834 JLINK_IsHalted()
T93A0 000:832.269 - 0.446ms returns FALSE
T93A0 000:833.827 JLINK_IsHalted()
T93A0 000:834.265 - 0.492ms returns FALSE
T93A0 000:835.822 JLINK_IsHalted()
T93A0 000:836.243 - 0.432ms returns FALSE
T93A0 000:837.817 JLINK_IsHalted()
T93A0 000:838.260 - 0.454ms returns FALSE
T93A0 000:839.812 JLINK_IsHalted()
T93A0 000:840.248 - 0.446ms returns FALSE
T93A0 000:841.806 JLINK_IsHalted()
T93A0 000:842.245 - 0.450ms returns FALSE
T93A0 000:843.794 JLINK_IsHalted()
T93A0 000:844.219 - 0.434ms returns FALSE
T93A0 000:846.793 JLINK_IsHalted()
T93A0 000:849.250   CPU_ReadMem(2 bytes @ 0x20000000)
T93A0 000:849.715 - 2.933ms returns TRUE
T93A0 000:849.737 JLINK_ReadReg(R15 (PC))
T93A0 000:849.750 - 0.017ms returns 0x20000000
T93A0 000:849.763 JLINK_ClrBPEx(BPHandle = 0x00000007)
T93A0 000:849.773 - 0.014ms returns 0x00
T93A0 000:849.785 JLINK_ReadReg(R0)
T93A0 000:849.794 - 0.014ms returns 0x00000000
T93A0 000:850.755 JLINK_WriteMem(0x20000164, 0x029C Bytes, ...)
T93A0 000:850.771   Data:  05 60 F3 D1 BC F1 00 0F 0E D0 51 F8 22 30 BC F1 ...
T93A0 000:850.791   CPU_WriteMem(668 bytes @ 0x20000164)
T93A0 000:855.217 - 4.473ms returns 0x29C
T93A0 000:855.239 JLINK_WriteMem(0x20000400, 0x0164 Bytes, ...)
T93A0 000:855.250   Data:  02 03 99 42 61 D0 58 23 C4 F2 02 03 99 42 61 D1 ...
T93A0 000:855.270   CPU_WriteMem(356 bytes @ 0x20000400)
T93A0 000:857.892 - 2.663ms returns 0x164
T93A0 000:857.919 JLINK_WriteReg(R0, 0x08000C00)
T93A0 000:857.932 - 0.018ms returns 0x00
T93A0 000:857.944 JLINK_WriteReg(R1, 0x00000400)
T93A0 000:857.954 - 0.014ms returns 0x00
T93A0 000:857.966 JLINK_WriteReg(R2, 0x20000164)
T93A0 000:857.976 - 0.014ms returns 0x00
T93A0 000:857.987 JLINK_WriteReg(R3, 0x00000000)
T93A0 000:857.997 - 0.013ms returns 0x00
T93A0 000:858.008 JLINK_WriteReg(R4, 0x00000000)
T93A0 000:858.017 - 0.013ms returns 0x00
T93A0 000:858.029 JLINK_WriteReg(R5, 0x00000000)
T93A0 000:858.038 - 0.013ms returns 0x00
T93A0 000:858.050 JLINK_WriteReg(R6, 0x00000000)
T93A0 000:858.059 - 0.013ms returns 0x00
T93A0 000:858.071 JLINK_WriteReg(R7, 0x00000000)
T93A0 000:858.080 - 0.013ms returns 0x00
T93A0 000:858.092 JLINK_WriteReg(R8, 0x00000000)
T93A0 000:858.101 - 0.014ms returns 0x00
T93A0 000:858.113 JLINK_WriteReg(R9, 0x20000160)
T93A0 000:858.122 - 0.013ms returns 0x00
T93A0 000:858.134 JLINK_WriteReg(R10, 0x00000000)
T93A0 000:858.143 - 0.013ms returns 0x00
T93A0 000:858.155 JLINK_WriteReg(R11, 0x00000000)
T93A0 000:858.164 - 0.013ms returns 0x00
T93A0 000:858.176 JLINK_WriteReg(R12, 0x00000000)
T93A0 000:858.185 - 0.014ms returns 0x00
T93A0 000:858.197 JLINK_WriteReg(R13 (SP), 0x20001000)
T93A0 000:858.206 - 0.014ms returns 0x00
T93A0 000:858.218 JLINK_WriteReg(R14, 0x20000001)
T93A0 000:858.227 - 0.014ms returns 0x00
T93A0 000:858.239 JLINK_WriteReg(R15 (PC), 0x200000F4)
T93A0 000:858.248 - 0.014ms returns 0x00
T93A0 000:858.260 JLINK_WriteReg(XPSR, 0x01000000)
T93A0 000:858.269 - 0.013ms returns 0x00
T93A0 000:858.281 JLINK_WriteReg(MSP, 0x20001000)
T93A0 000:858.290 - 0.013ms returns 0x00
T93A0 000:858.302 JLINK_WriteReg(PSP, 0x20001000)
T93A0 000:858.311 - 0.013ms returns 0x00
T93A0 000:858.323 JLINK_WriteReg(CFBP, 0x00000000)
T93A0 000:858.332 - 0.013ms returns 0x00
T93A0 000:858.344   JLINK_SetBPEx(Addr = 0x20000000, Type = 0xFFFFFFF2)
T93A0 000:858.358 - 0.019ms returns 0x00000008
T93A0 000:858.370 JLINK_Go()
T93A0 000:858.387   CPU_ReadMem(4 bytes @ 0xE0001000)
T93A0 000:861.160 - 2.800ms
T93A0 000:861.182 JLINK_IsHalted()
T93A0 000:861.607 - 0.436ms returns FALSE
T93A0 000:862.754 JLINK_IsHalted()
T93A0 000:863.194 - 0.451ms returns FALSE
T93A0 000:864.744 JLINK_IsHalted()
T93A0 000:865.166 - 0.432ms returns FALSE
T93A0 000:866.739 JLINK_IsHalted()
T93A0 000:867.172 - 0.444ms returns FALSE
T93A0 000:868.734 JLINK_IsHalted()
T93A0 000:869.172 - 0.449ms returns FALSE
T93A0 000:870.731 JLINK_IsHalted()
T93A0 000:871.158 - 0.438ms returns FALSE
T93A0 000:872.723 JLINK_IsHalted()
T93A0 000:873.159 - 0.447ms returns FALSE
T93A0 000:874.722 JLINK_IsHalted()
T93A0 000:875.108 - 0.397ms returns FALSE
T93A0 000:878.726 JLINK_IsHalted()
T93A0 000:879.162 - 0.489ms returns FALSE
T93A0 000:880.702 JLINK_IsHalted()
T93A0 000:881.140 - 0.449ms returns FALSE
T93A0 000:882.696 JLINK_IsHalted()
T93A0 000:883.135 - 0.449ms returns FALSE
T93A0 000:884.706 JLINK_IsHalted()
T93A0 000:885.145 - 0.449ms returns FALSE
T93A0 000:886.688 JLINK_IsHalted()
T93A0 000:887.125 - 0.448ms returns FALSE
T93A0 000:888.681 JLINK_IsHalted()
T93A0 000:889.117 - 0.448ms returns FALSE
T93A0 000:890.678 JLINK_IsHalted()
T93A0 000:891.093 - 0.426ms returns FALSE
T93A0 000:892.668 JLINK_IsHalted()
T93A0 000:895.124   CPU_ReadMem(2 bytes @ 0x20000000)
T93A0 000:895.589 - 2.932ms returns TRUE
T93A0 000:895.612 JLINK_ReadReg(R15 (PC))
T93A0 000:895.629 - 0.021ms returns 0x20000000
T93A0 000:895.641 JLINK_ClrBPEx(BPHandle = 0x00000008)
T93A0 000:895.651 - 0.014ms returns 0x00
T93A0 000:895.663 JLINK_ReadReg(R0)
T93A0 000:895.673 - 0.014ms returns 0x00000000
T93A0 000:896.645 JLINK_WriteMem(0x20000164, 0x029C Bytes, ...)
T93A0 000:896.661   Data:  42 EA 08 02 CC F8 00 20 00 22 8A 63 81 F8 21 00 ...
T93A0 000:896.681   CPU_WriteMem(668 bytes @ 0x20000164)
T93A0 000:901.162 - 4.528ms returns 0x29C
T93A0 000:901.184 JLINK_WriteMem(0x20000400, 0x0164 Bytes, ...)
T93A0 000:901.195   Data:  00 20 00 21 88 F8 18 10 01 B0 BD E8 F0 8F 00 00 ...
T93A0 000:901.215   CPU_WriteMem(356 bytes @ 0x20000400)
T93A0 000:903.929 - 2.756ms returns 0x164
T93A0 000:903.960 JLINK_WriteReg(R0, 0x08001000)
T93A0 000:903.974 - 0.018ms returns 0x00
T93A0 000:903.986 JLINK_WriteReg(R1, 0x00000400)
T93A0 000:903.995 - 0.013ms returns 0x00
T93A0 000:904.009 JLINK_WriteReg(R2, 0x20000164)
T93A0 000:904.019 - 0.014ms returns 0x00
T93A0 000:904.033 JLINK_WriteReg(R3, 0x00000000)
T93A0 000:904.042 - 0.013ms returns 0x00
T93A0 000:904.056 JLINK_WriteReg(R4, 0x00000000)
T93A0 000:904.065 - 0.013ms returns 0x00
T93A0 000:904.079 JLINK_WriteReg(R5, 0x00000000)
T93A0 000:904.088 - 0.013ms returns 0x00
T93A0 000:904.102 JLINK_WriteReg(R6, 0x00000000)
T93A0 000:904.111 - 0.013ms returns 0x00
T93A0 000:904.123 JLINK_WriteReg(R7, 0x00000000)
T93A0 000:904.132 - 0.013ms returns 0x00
T93A0 000:904.143 JLINK_WriteReg(R8, 0x00000000)
T93A0 000:904.152 - 0.013ms returns 0x00
T93A0 000:904.166 JLINK_WriteReg(R9, 0x20000160)
T93A0 000:904.175 - 0.013ms returns 0x00
T93A0 000:904.189 JLINK_WriteReg(R10, 0x00000000)
T93A0 000:904.198 - 0.014ms returns 0x00
T93A0 000:904.210 JLINK_WriteReg(R11, 0x00000000)
T93A0 000:904.219 - 0.013ms returns 0x00
T93A0 000:904.231 JLINK_WriteReg(R12, 0x00000000)
T93A0 000:904.240 - 0.013ms returns 0x00
T93A0 000:904.254 JLINK_WriteReg(R13 (SP), 0x20001000)
T93A0 000:904.264 - 0.014ms returns 0x00
T93A0 000:904.275 JLINK_WriteReg(R14, 0x20000001)
T93A0 000:904.285 - 0.014ms returns 0x00
T93A0 000:904.297 JLINK_WriteReg(R15 (PC), 0x200000F4)
T93A0 000:904.306 - 0.014ms returns 0x00
T93A0 000:904.320 JLINK_WriteReg(XPSR, 0x01000000)
T93A0 000:904.329 - 0.014ms returns 0x00
T93A0 000:904.341 JLINK_WriteReg(MSP, 0x20001000)
T93A0 000:904.350 - 0.013ms returns 0x00
T93A0 000:904.362 JLINK_WriteReg(PSP, 0x20001000)
T93A0 000:904.371 - 0.013ms returns 0x00
T93A0 000:904.385 JLINK_WriteReg(CFBP, 0x00000000)
T93A0 000:904.394 - 0.013ms returns 0x00
T93A0 000:904.409   JLINK_SetBPEx(Addr = 0x20000000, Type = 0xFFFFFFF2)
T93A0 000:904.423 - 0.019ms returns 0x00000009
T93A0 000:904.437 JLINK_Go()
T93A0 000:904.454   CPU_ReadMem(4 bytes @ 0xE0001000)
T93A0 000:907.123 - 2.697ms
T93A0 000:907.149 JLINK_IsHalted()
T93A0 000:907.514 - 0.378ms returns FALSE
T93A0 000:909.625 JLINK_IsHalted()
T93A0 000:910.073 - 0.459ms returns FALSE
T93A0 000:911.623 JLINK_IsHalted()
T93A0 000:912.047 - 0.434ms returns FALSE
T93A0 000:913.617 JLINK_IsHalted()
T93A0 000:914.052 - 0.446ms returns FALSE
T93A0 000:915.621 JLINK_IsHalted()
T93A0 000:916.058 - 0.448ms returns FALSE
T93A0 000:917.602 JLINK_IsHalted()
T93A0 000:918.034 - 0.444ms returns FALSE
T93A0 000:919.603 JLINK_IsHalted()
T93A0 000:920.027 - 0.435ms returns FALSE
T93A0 000:921.636 JLINK_IsHalted()
T93A0 000:922.095 - 0.473ms returns FALSE
T93A0 000:925.581 JLINK_IsHalted()
T93A0 000:926.002 - 0.432ms returns FALSE
T93A0 000:927.578 JLINK_IsHalted()
T93A0 000:927.999 - 0.432ms returns FALSE
T93A0 000:929.570 JLINK_IsHalted()
T93A0 000:930.003 - 0.444ms returns FALSE
T93A0 000:931.565 JLINK_IsHalted()
T93A0 000:931.999 - 0.445ms returns FALSE
T93A0 000:933.560 JLINK_IsHalted()
T93A0 000:933.996 - 0.447ms returns FALSE
T93A0 000:935.560 JLINK_IsHalted()
T93A0 000:935.989 - 0.441ms returns FALSE
T93A0 000:937.549 JLINK_IsHalted()
T93A0 000:940.022   CPU_ReadMem(2 bytes @ 0x20000000)
T93A0 000:940.546 - 3.008ms returns TRUE
T93A0 000:940.569 JLINK_ReadReg(R15 (PC))
T93A0 000:940.582 - 0.018ms returns 0x20000000
T93A0 000:940.594 JLINK_ClrBPEx(BPHandle = 0x00000009)
T93A0 000:940.605 - 0.014ms returns 0x00
T93A0 000:940.617 JLINK_ReadReg(R0)
T93A0 000:940.626 - 0.014ms returns 0x00000000
T93A0 000:941.628 JLINK_WriteMem(0x20000164, 0x029C Bytes, ...)
T93A0 000:941.644   Data:  7E 78 4F F0 0F 0E 01 27 1C E0 00 BF 23 46 05 46 ...
T93A0 000:941.665   CPU_WriteMem(668 bytes @ 0x20000164)
T93A0 000:946.090 - 4.474ms returns 0x29C
T93A0 000:946.113 JLINK_WriteMem(0x20000400, 0x0164 Bytes, ...)
T93A0 000:946.123   Data:  98 42 3F F4 28 AF 41 F2 00 03 C4 F2 01 03 98 42 ...
T93A0 000:946.144   CPU_WriteMem(356 bytes @ 0x20000400)
T93A0 000:948.767 - 2.665ms returns 0x164
T93A0 000:948.794 JLINK_WriteReg(R0, 0x08001400)
T93A0 000:948.807 - 0.018ms returns 0x00
T93A0 000:948.819 JLINK_WriteReg(R1, 0x00000400)
T93A0 000:948.828 - 0.013ms returns 0x00
T93A0 000:948.840 JLINK_WriteReg(R2, 0x20000164)
T93A0 000:948.849 - 0.013ms returns 0x00
T93A0 000:948.860 JLINK_WriteReg(R3, 0x00000000)
T93A0 000:948.869 - 0.013ms returns 0x00
T93A0 000:948.880 JLINK_WriteReg(R4, 0x00000000)
T93A0 000:948.889 - 0.013ms returns 0x00
T93A0 000:948.900 JLINK_WriteReg(R5, 0x00000000)
T93A0 000:948.909 - 0.013ms returns 0x00
T93A0 000:948.920 JLINK_WriteReg(R6, 0x00000000)
T93A0 000:948.929 - 0.013ms returns 0x00
T93A0 000:948.941 JLINK_WriteReg(R7, 0x00000000)
T93A0 000:948.949 - 0.013ms returns 0x00
T93A0 000:948.961 JLINK_WriteReg(R8, 0x00000000)
T93A0 000:948.970 - 0.013ms returns 0x00
T93A0 000:948.981 JLINK_WriteReg(R9, 0x20000160)
T93A0 000:948.990 - 0.013ms returns 0x00
T93A0 000:949.001 JLINK_WriteReg(R10, 0x00000000)
T93A0 000:949.010 - 0.013ms returns 0x00
T93A0 000:949.022 JLINK_WriteReg(R11, 0x00000000)
T93A0 000:949.031 - 0.014ms returns 0x00
T93A0 000:949.043 JLINK_WriteReg(R12, 0x00000000)
T93A0 000:949.052 - 0.013ms returns 0x00
T93A0 000:949.064 JLINK_WriteReg(R13 (SP), 0x20001000)
T93A0 000:949.074 - 0.014ms returns 0x00
T93A0 000:949.086 JLINK_WriteReg(R14, 0x20000001)
T93A0 000:949.095 - 0.013ms returns 0x00
T93A0 000:949.107 JLINK_WriteReg(R15 (PC), 0x200000F4)
T93A0 000:949.116 - 0.013ms returns 0x00
T93A0 000:949.127 JLINK_WriteReg(XPSR, 0x01000000)
T93A0 000:949.137 - 0.013ms returns 0x00
T93A0 000:949.148 JLINK_WriteReg(MSP, 0x20001000)
T93A0 000:949.157 - 0.013ms returns 0x00
T93A0 000:949.169 JLINK_WriteReg(PSP, 0x20001000)
T93A0 000:949.178 - 0.013ms returns 0x00
T93A0 000:949.190 JLINK_WriteReg(CFBP, 0x00000000)
T93A0 000:949.199 - 0.013ms returns 0x00
T93A0 000:949.212   JLINK_SetBPEx(Addr = 0x20000000, Type = 0xFFFFFFF2)
T93A0 000:949.226 - 0.019ms returns 0x0000000A
T93A0 000:949.237 JLINK_Go()
T93A0 000:949.254   CPU_ReadMem(4 bytes @ 0xE0001000)
T93A0 000:952.131 - 2.904ms
T93A0 000:952.153 JLINK_IsHalted()
T93A0 000:952.560 - 0.418ms returns FALSE
T93A0 000:954.515 JLINK_IsHalted()
T93A0 000:954.952 - 0.448ms returns FALSE
T93A0 000:956.501 JLINK_IsHalted()
T93A0 000:956.934 - 0.444ms returns FALSE
T93A0 000:958.498 JLINK_IsHalted()
T93A0 000:958.938 - 0.451ms returns FALSE
T93A0 000:960.487 JLINK_IsHalted()
T93A0 000:960.923 - 0.447ms returns FALSE
T93A0 000:962.482 JLINK_IsHalted()
T93A0 000:962.914 - 0.444ms returns FALSE
T93A0 000:964.477 JLINK_IsHalted()
T93A0 000:964.911 - 0.445ms returns FALSE
T93A0 000:966.471 JLINK_IsHalted()
T93A0 000:966.919 - 0.461ms returns FALSE
T93A0 000:968.490 JLINK_IsHalted()
T93A0 000:968.949 - 0.469ms returns FALSE
T93A0 000:970.463 JLINK_IsHalted()
T93A0 000:970.927 - 0.475ms returns FALSE
T93A0 000:972.460 JLINK_IsHalted()
T93A0 000:972.918 - 0.469ms returns FALSE
T93A0 000:974.450 JLINK_IsHalted()
T93A0 000:974.908 - 0.469ms returns FALSE
T93A0 000:976.448 JLINK_IsHalted()
T93A0 000:976.910 - 0.473ms returns FALSE
T93A0 000:978.439 JLINK_IsHalted()
T93A0 000:978.900 - 0.472ms returns FALSE
T93A0 000:980.441 JLINK_IsHalted()
T93A0 000:980.884 - 0.453ms returns FALSE
T93A0 000:982.429 JLINK_IsHalted()
T93A0 000:982.887 - 0.469ms returns FALSE
T93A0 000:984.438 JLINK_IsHalted()
T93A0 000:986.817   CPU_ReadMem(2 bytes @ 0x20000000)
T93A0 000:987.287 - 2.860ms returns TRUE
T93A0 000:987.313 JLINK_ReadReg(R15 (PC))
T93A0 000:987.326 - 0.018ms returns 0x20000000
T93A0 000:987.339 JLINK_ClrBPEx(BPHandle = 0x0000000A)
T93A0 000:987.349 - 0.014ms returns 0x00
T93A0 000:987.364 JLINK_ReadReg(R0)
T93A0 000:987.382 - 0.022ms returns 0x00000000
T93A0 000:988.332 JLINK_WriteMem(0x20000164, 0x029C Bytes, ...)
T93A0 000:988.348   Data:  1F 30 00 05 12 D0 9B B1 19 20 68 43 BE FB F0 F0 ...
T93A0 000:988.372   CPU_WriteMem(668 bytes @ 0x20000164)
T93A0 000:992.791 - 4.470ms returns 0x29C
T93A0 000:992.814 JLINK_WriteMem(0x20000400, 0x0164 Bytes, ...)
T93A0 000:992.824   Data:  00 F0 83 80 42 F2 00 08 C4 F2 02 08 04 46 D8 F8 ...
T93A0 000:992.844   CPU_WriteMem(356 bytes @ 0x20000400)
T93A0 000:995.464 - 2.661ms returns 0x164
T93A0 000:995.491 JLINK_WriteReg(R0, 0x08001800)
T93A0 000:995.504 - 0.018ms returns 0x00
T93A0 000:995.516 JLINK_WriteReg(R1, 0x00000400)
T93A0 000:995.526 - 0.013ms returns 0x00
T93A0 000:995.537 JLINK_WriteReg(R2, 0x20000164)
T93A0 000:995.546 - 0.013ms returns 0x00
T93A0 000:995.557 JLINK_WriteReg(R3, 0x00000000)
T93A0 000:995.566 - 0.013ms returns 0x00
T93A0 000:995.577 JLINK_WriteReg(R4, 0x00000000)
T93A0 000:995.586 - 0.013ms returns 0x00
T93A0 000:995.598 JLINK_WriteReg(R5, 0x00000000)
T93A0 000:995.607 - 0.013ms returns 0x00
T93A0 000:995.618 JLINK_WriteReg(R6, 0x00000000)
T93A0 000:995.627 - 0.013ms returns 0x00
T93A0 000:995.638 JLINK_WriteReg(R7, 0x00000000)
T93A0 000:995.647 - 0.013ms returns 0x00
T93A0 000:995.658 JLINK_WriteReg(R8, 0x00000000)
T93A0 000:995.667 - 0.013ms returns 0x00
T93A0 000:995.678 JLINK_WriteReg(R9, 0x20000160)
T93A0 000:995.687 - 0.013ms returns 0x00
T93A0 000:995.698 JLINK_WriteReg(R10, 0x00000000)
T93A0 000:995.707 - 0.013ms returns 0x00
T93A0 000:995.719 JLINK_WriteReg(R11, 0x00000000)
T93A0 000:995.729 - 0.014ms returns 0x00
T93A0 000:995.740 JLINK_WriteReg(R12, 0x00000000)
T93A0 000:995.750 - 0.013ms returns 0x00
T93A0 000:995.761 JLINK_WriteReg(R13 (SP), 0x20001000)
T93A0 000:995.771 - 0.014ms returns 0x00
T93A0 000:995.783 JLINK_WriteReg(R14, 0x20000001)
T93A0 000:995.792 - 0.013ms returns 0x00
T93A0 000:995.804 JLINK_WriteReg(R15 (PC), 0x200000F4)
T93A0 000:995.813 - 0.013ms returns 0x00
T93A0 000:995.825 JLINK_WriteReg(XPSR, 0x01000000)
T93A0 000:995.834 - 0.013ms returns 0x00
T93A0 000:995.845 JLINK_WriteReg(MSP, 0x20001000)
T93A0 000:995.855 - 0.013ms returns 0x00
T93A0 000:995.866 JLINK_WriteReg(PSP, 0x20001000)
T93A0 000:995.875 - 0.013ms returns 0x00
T93A0 000:995.887 JLINK_WriteReg(CFBP, 0x00000000)
T93A0 000:995.896 - 0.013ms returns 0x00
T93A0 000:995.909   JLINK_SetBPEx(Addr = 0x20000000, Type = 0xFFFFFFF2)
T93A0 000:995.922 - 0.019ms returns 0x0000000B
T93A0 000:995.934 JLINK_Go()
T93A0 000:995.950   CPU_ReadMem(4 bytes @ 0xE0001000)
T93A0 000:998.791 - 2.868ms
T93A0 000:998.814 JLINK_IsHalted()
T93A0 000:999.238 - 0.435ms returns FALSE
T93A0 001:000.402 JLINK_IsHalted()
T93A0 001:000.958 - 0.567ms returns FALSE
T93A0 001:002.356 JLINK_IsHalted()
T93A0 001:002.866 - 0.522ms returns FALSE
T93A0 001:004.370 JLINK_IsHalted()
T93A0 001:004.811 - 0.452ms returns FALSE
T93A0 001:006.365 JLINK_IsHalted()
T93A0 001:006.815 - 0.462ms returns FALSE
T93A0 001:008.362 JLINK_IsHalted()
T93A0 001:008.815 - 0.465ms returns FALSE
T93A0 001:010.354 JLINK_IsHalted()
T93A0 001:010.815 - 0.472ms returns FALSE
T93A0 001:012.351 JLINK_IsHalted()
T93A0 001:012.811 - 0.471ms returns FALSE
T93A0 001:014.343 JLINK_IsHalted()
T93A0 001:014.830 - 0.497ms returns FALSE
T93A0 001:016.354 JLINK_IsHalted()
T93A0 001:016.816 - 0.473ms returns FALSE
T93A0 001:018.341 JLINK_IsHalted()
T93A0 001:018.768 - 0.437ms returns FALSE
T93A0 001:020.325 JLINK_IsHalted()
T93A0 001:020.772 - 0.456ms returns FALSE
T93A0 001:022.915 JLINK_IsHalted()
T93A0 001:023.365 - 0.462ms returns FALSE
T93A0 001:025.310 JLINK_IsHalted()
T93A0 001:025.785 - 0.486ms returns FALSE
T93A0 001:027.308 JLINK_IsHalted()
T93A0 001:027.734 - 0.437ms returns FALSE
T93A0 001:029.331 JLINK_IsHalted()
T93A0 001:031.841   CPU_ReadMem(2 bytes @ 0x20000000)
T93A0 001:032.248 - 2.928ms returns TRUE
T93A0 001:032.273 JLINK_ReadReg(R15 (PC))
T93A0 001:032.290 - 0.024ms returns 0x20000000
T93A0 001:032.307 JLINK_ClrBPEx(BPHandle = 0x0000000B)
T93A0 001:032.321 - 0.019ms returns 0x00
T93A0 001:032.337 JLINK_ReadReg(R0)
T93A0 001:032.349 - 0.530ms returns 0x00000000
T93A0 001:034.304 JLINK_WriteMem(0x20000164, 0x029C Bytes, ...)
T93A0 001:034.323   Data:  A1 43 C2 F3 40 42 C0 F6 00 03 9A 5C 48 43 B0 FB ...
T93A0 001:034.345   CPU_WriteMem(668 bytes @ 0x20000164)
T93A0 001:038.792 - 4.502ms returns 0x29C
T93A0 001:038.818 JLINK_WriteMem(0x20000400, 0x0164 Bytes, ...)
T93A0 001:038.829   Data:  FF F7 24 FC 40 1B 02 28 4F F0 03 00 F4 D9 5F E7 ...
T93A0 001:038.856   CPU_WriteMem(356 bytes @ 0x20000400)
T93A0 001:041.563 - 2.756ms returns 0x164
T93A0 001:041.596 JLINK_WriteReg(R0, 0x08001C00)
T93A0 001:041.611 - 0.020ms returns 0x00
T93A0 001:041.623 JLINK_WriteReg(R1, 0x00000400)
T93A0 001:041.633 - 0.014ms returns 0x00
T93A0 001:041.648 JLINK_WriteReg(R2, 0x20000164)
